Time[s], Channel 7, Channel 9
0.000000000000000, 0, 0
0.006132000000000, 1, 0
0.006144000000000, 0, 0
0.282144000000000, 0, 1
0.282632000000000, 0, 0
0.336472000000000, 1, 0
0.336482000000000, 0, 0
0.584358000000000, 0, 1
0.584766000000000, 0, 0
0.666810000000000, 1, 0
0.666820000000000, 0, 0
0.886590000000000, 0, 1
0.886996000000000, 0, 0
0.997148000000000, 1, 0
0.997160000000000, 0, 0
1.188820000000000, 0, 1
1.189226000000000, 0, 0
1.217374000000000, 1, 0
1.217384000000000, 0, 0
1.491516000000000, 0, 1
1.492002000000000, 0, 0
1.547712000000000, 1, 0
1.547722000000000, 0, 0
1.793708000000000, 0, 1
1.794114000000000, 0, 0
1.878050000000000, 1, 0
1.878062000000000, 0, 0
2.095938000000000, 0, 1
2.096344000000000, 0, 0
2.398168000000000, 0, 1
2.398576000000000, 0, 0
2.538710000000000, 1, 0
2.538722000000000, 0, 0
2.648824000000000, 1, 0
2.648834000000000, 0, 0
2.700398000000000, 0, 1
2.700804000000000, 0, 0
2.758952000000000, 1, 0
2.758964000000000, 0, 0
3.002628000000000, 0, 1
3.003034000000000, 0, 0
3.089290000000000, 1, 0
3.089302000000000, 0, 0
3.304858000000000, 0, 1
3.305266000000000, 0, 0
3.419628000000000, 1, 0
3.419640000000000, 0, 0
3.607088000000000, 0, 1
3.607496000000000, 0, 0
3.639854000000000, 1, 0
3.639866000000000, 0, 0
3.909318000000000, 0, 1
3.909726000000000, 0, 0
3.970192000000000, 1, 0
3.970204000000000, 0, 0
4.211548000000000, 0, 1
4.211956000000000, 0, 0
4.300530000000000, 1, 0
4.300542000000000, 0, 0
4.513777999999999, 0, 1
4.514402000000000, 0, 0
4.630868000000000, 1, 0
4.630879999999999, 0, 0
4.816021999999999, 0, 1
4.816430000000000, 0, 0
4.851094000000000, 1, 0
4.851106000000000, 0, 0
5.118240000000000, 0, 1
5.118646000000000, 0, 0
5.181432000000000, 1, 0
5.181444000000000, 0, 0
5.420470000000000, 0, 1
5.420876000000000, 0, 0
5.511769999999999, 1, 0
5.511782000000000, 0, 0
5.722700000000000, 0, 1
5.723108000000000, 0, 0
5.731996000000000, 1, 0
5.732008000000000, 0, 0
6.024929999999999, 0, 1
6.025335999999999, 0, 0
6.062304000000000, 1, 0
6.062316000000000, 0, 0
6.327173999999999, 0, 1
6.327579999999999, 0, 0
6.392641999999999, 1, 0
6.392653999999999, 0, 0
6.629390000000000, 0, 1
6.629798000000000, 0, 0
6.722980000000000, 1, 0
6.722992000000000, 0, 0
6.931620000000000, 0, 1
6.932028000000000, 0, 0
6.943206000000000, 1, 0
6.943218000000000, 0, 0
7.233849999999999, 0, 1
7.234258000000000, 0, 0
7.273543999999999, 1, 0
7.273555999999999, 0, 0
7.536082000000000, 0, 1
7.536487999999999, 0, 0
7.713979999999999, 1, 0
7.713990000000000, 0, 0
7.838311999999999, 0, 1
7.838718000000000, 0, 0
7.934220000000000, 1, 0
7.934232000000000, 0, 0
8.140542000000000, 0, 1
8.140948000000000, 0, 0
8.154446000000000, 1, 0
8.154458000000000, 0, 0
8.442772000000000, 0, 1
8.443178000000000, 0, 0
8.484783999999999, 1, 0
8.484795999999999, 0, 0
8.745001999999999, 0, 1
8.745407999999999, 0, 0
8.815123999999999, 1, 0
8.815134000000000, 0, 0
9.047231999999999, 0, 1
9.047639999999999, 0, 0
9.145462000000000, 1, 0
9.145472000000000, 0, 0
9.349447999999999, 0, 1
9.349933999999999, 0, 0
9.365686000000000, 1, 0
9.365698000000000, 0, 0
9.651662000000000, 0, 1
9.652070000000000, 0, 0
9.696024000000000, 1, 0
9.696035999999999, 0, 0
9.953892000000000, 0, 1
9.954300000000000, 0, 0
10.026363999999999, 1, 0
10.026373999999999, 0, 0
10.256122000000000, 0, 1
10.256530000000000, 0, 0
10.356702000000000, 1, 0
10.356712000000000, 0, 0
10.558351999999999, 0, 1
10.558759999999999, 0, 0
10.687040000000000, 1, 0
10.687049999999999, 0, 0
10.861008000000000, 0, 1
10.861493999999999, 0, 0
10.907266000000000, 1, 0
10.907276000000000, 0, 0
11.163209999999999, 0, 1
11.163615999999999, 0, 0
11.465439999999999, 0, 1
11.465847999999999, 0, 0
11.567926000000000, 1, 0
11.567938000000000, 0, 0
11.678037999999999, 1, 0
11.678049999999999, 0, 0
11.767669999999999, 0, 1
11.768077999999999, 0, 0
11.788167999999999, 1, 0
11.788178000000000, 0, 0
12.069899999999999, 0, 1
12.070307999999999, 0, 0
12.118506000000000, 1, 0
12.118516000000000, 0, 0
12.372544000000000, 0, 1
12.373032000000000, 0, 0
12.448843999999999, 1, 0
12.448853999999999, 0, 0
12.674757999999999, 0, 1
12.675163999999999, 0, 0
12.779181999999999, 1, 0
12.779193999999999, 0, 0
12.977013999999999, 0, 1
12.977421999999999, 0, 0
12.999407999999999, 1, 0
12.999417999999999, 0, 0
13.279218000000000, 0, 1
13.279625999999999, 0, 0
13.329746000000000, 1, 0
13.329758000000000, 0, 0
13.581448000000000, 0, 1
13.581856000000000, 0, 0
13.770195999999999, 1, 0
13.770208000000000, 0, 0
13.884119999999999, 0, 1
13.884570000000000, 0, 0
13.990421999999999, 1, 0
13.990433999999999, 0, 0
14.186368000000000, 0, 1
14.186853999999999, 0, 0
14.210647999999999, 1, 0
14.210657999999999, 0, 0
14.488565999999999, 0, 1
14.488973999999999, 0, 0
14.540986000000000, 1, 0
14.540998000000000, 0, 0
14.790795999999999, 0, 1
14.791203999999999, 0, 0
15.091550000000000, 1, 0
15.091559999999999, 0, 0
15.093026000000000, 0, 1
15.093433999999998, 0, 0
15.201632000000000, 1, 0
15.201644000000000, 0, 0
15.395740000000000, 0, 1
15.396227999999999, 0, 0
15.421857999999999, 1, 0
15.421868000000000, 0, 0
15.697944000000000, 0, 1
15.698352000000000, 0, 0
15.752196000000000, 1, 0
15.752208000000000, 0, 0
16.000176000000000, 0, 1
16.000581999999998, 0, 0
16.082533999999999, 1, 0
16.082546000000001, 0, 0
16.302405999999998, 0, 1
16.302811999999999, 0, 0
16.412855999999998, 1, 0
16.412868000000000, 0, 0
16.604635999999999, 0, 1
16.605042000000001, 0, 0
16.633098000000000, 1, 0
16.633109999999999, 0, 0
16.907157999999999, 0, 1
16.907646000000000, 0, 0
16.963435999999998, 1, 0
16.963448000000000, 0, 0
17.209370000000000, 0, 1
17.209778000000000, 0, 0
17.293773999999999, 1, 0
17.293786000000001, 0, 0
17.511599999999998, 0, 1
17.512007999999998, 0, 0
17.624112000000000, 1, 0
17.624123999999998, 0, 0
17.813829999999999, 0, 1
17.814238000000000, 0, 0
17.844338000000000, 1, 0
17.844349999999999, 0, 0
18.116061999999999, 0, 1
18.116467999999998, 0, 0
18.174675999999998, 1, 0
18.174688000000000, 0, 0
18.418291999999997, 0, 1
18.418697999999999, 0, 0
18.505013999999999, 1, 0
18.505026000000001, 0, 0
18.720521999999999, 0, 1
18.720928000000001, 0, 0
18.835353999999999, 1, 0
18.835363999999998, 0, 0
19.022752000000001, 0, 1
19.023157999999999, 0, 0
19.055578000000001, 1, 0
19.055589999999999, 0, 0
19.324981999999999, 0, 1
19.325388000000000, 0, 0
19.385915999999998, 1, 0
19.385928000000000, 0, 0
19.627212000000000, 0, 1
19.627620000000000, 0, 0
19.929441999999998, 0, 1
19.929852000000000, 0, 0
20.046593999999999, 1, 0
20.046603999999999, 0, 0
20.156706000000000, 1, 0
20.156717999999998, 0, 0
20.231687999999998, 0, 1
20.232174000000001, 0, 0
20.266818000000001, 1, 0
20.266829999999999, 0, 0
20.533901999999998, 0, 1
20.534309999999998, 0, 0
20.597158000000000, 1, 0
20.597168000000000, 0, 0
20.836131999999999, 0, 1
20.836539999999999, 0, 0
20.927495999999998, 1, 0
20.927505999999997, 0, 0
21.138363999999999, 0, 1
21.138769999999997, 0, 0
21.147720000000000, 1, 0
21.147731999999998, 0, 0
21.440593999999997, 0, 1
21.440999999999999, 0, 0
21.742837999999999, 0, 1
21.743326000000000, 0, 0
21.808398000000000, 1, 0
21.808408000000000, 0, 0
21.918509999999998, 1, 0
21.918521999999999, 0, 0
22.045054000000000, 0, 1
22.045459999999999, 0, 0
22.248847999999999, 1, 0
22.248860000000001, 0, 0
22.347283999999998, 0, 1
22.347690000000000, 0, 0
22.358960000000000, 1, 0
22.358971999999998, 0, 0
22.649514000000000, 0, 1
22.649922000000000, 0, 0
22.799412000000000, 1, 0
22.799422000000000, 0, 0
22.951743999999998, 0, 1
22.952151999999998, 0, 0
23.019638000000000, 1, 0
23.019648000000000, 0, 0
23.253973999999999, 0, 1
23.254382000000000, 0, 0
23.349975999999998, 1, 0
23.349985999999998, 0, 0
23.556220000000000, 0, 1
23.556704000000000, 0, 0
23.790409999999998, 1, 0
23.790422000000000, 0, 0
23.858433999999999, 0, 1
23.858841999999999, 0, 0
23.900523999999997, 1, 0
23.900534000000000, 0, 0
24.160665999999999, 0, 1
24.161071999999997, 0, 0
24.230878000000001, 1, 0
24.230888000000000, 0, 0
24.462896000000001, 0, 1
24.463301999999999, 0, 0
24.561215999999998, 1, 0
24.561225999999998, 0, 0
24.765262000000000, 0, 1
24.765747999999999, 0, 0
24.781412000000000, 1, 0
24.781421999999999, 0, 0
25.067477999999998, 0, 1
25.067883999999999, 0, 0
25.221861999999998, 1, 0
25.221874000000000, 0, 0
25.369707999999999, 0, 1
25.370113999999997, 0, 0
25.442087999999998, 1, 0
25.442097999999998, 0, 0
25.671937999999997, 0, 1
25.672345999999997, 0, 0
25.772425999999999, 1, 0
25.772435999999999, 0, 0
25.974167999999999, 0, 1
25.974575999999999, 0, 0
25.992652000000000, 1, 0
25.992661999999999, 0, 0
26.276733999999998, 0, 1
26.277220000000000, 0, 0
26.322989999999997, 1, 0
26.323000000000000, 0, 0
26.578934000000000, 0, 1
26.579342000000000, 0, 0
26.653327999999998, 1, 0
26.653337999999998, 0, 0
26.881163999999998, 0, 1
26.881571999999998, 0, 0
26.983665999999999, 1, 0
26.983677999999998, 0, 0
27.183394000000000, 0, 1
27.183802000000000, 0, 0
27.203892000000000, 1, 0
27.203901999999999, 0, 0
27.485623999999998, 0, 1
27.486031999999998, 0, 0
27.534213999999999, 1, 0
27.534226000000000, 0, 0
27.788263999999998, 0, 1
27.788751999999999, 0, 0
27.864567999999998, 1, 0
27.864580000000000, 0, 0
28.090481999999998, 0, 1
28.090888000000000, 0, 0
28.194906000000000, 1, 0
28.194917999999998, 0, 0
28.392712000000000, 0, 1
28.393117999999998, 0, 0
28.635358000000000, 1, 0
28.635368000000000, 0, 0
28.694941999999998, 0, 1
28.695349999999998, 0, 0
28.745469999999997, 1, 0
28.745481999999999, 0, 0
28.997171999999999, 0, 1
28.997579999999999, 0, 0
29.075807999999999, 1, 0
29.075820000000000, 0, 0
29.299844000000000, 0, 1
29.300293999999997, 0, 0
29.406146000000000, 1, 0
29.406157999999998, 0, 0
29.602059999999998, 0, 1
29.602467999999998, 0, 0
29.626372000000000, 1, 0
29.626383999999998, 0, 0
29.904290000000000, 0, 1
29.904698000000000, 0, 0
29.956709999999998, 1, 0
29.956721999999999, 0, 0
30.206519999999998, 0, 1
30.206927999999998, 0, 0
30.287047999999999, 1, 0
30.287060000000000, 0, 0
30.508749999999999, 0, 1
30.509157999999999, 0, 0
30.617386000000000, 1, 0
30.617397999999998, 0, 0
30.811363999999998, 0, 1
30.811851999999998, 0, 0
30.837613999999999, 1, 0
30.837623999999998, 0, 0
31.113577999999997, 0, 1
31.113983999999999, 0, 0
31.167949999999998, 1, 0
31.167961999999999, 0, 0
31.415807999999998, 0, 1
31.416214000000000, 0, 0
31.718038000000000, 0, 1
31.718498000000000, 1, 1
31.718509999999998, 0, 1
31.718859999999999, 0, 0
31.938739999999999, 1, 0
31.938749999999999, 0, 0
32.020268000000002, 0, 1
32.020674000000000, 0, 0
32.048851999999997, 1, 0
32.048864000000002, 0, 0
32.322924000000000, 0, 1
32.323409999999996, 0, 0
32.489303999999997, 1, 0
32.489314000000000, 0, 0
32.625126000000002, 0, 1
32.625532000000000, 0, 0
32.709527999999999, 1, 0
32.709539999999997, 0, 0
32.927355999999996, 0, 1
32.927762000000001, 0, 0
33.039867999999998, 1, 0
33.039878000000002, 0, 0
33.229585999999998, 0, 1
33.229991999999996, 0, 0
33.260092000000000, 1, 0
33.260103999999998, 0, 0
33.531815999999999, 0, 1
33.532221999999997, 0, 0
33.590429999999998, 1, 0
33.590441999999996, 0, 0
33.834046000000001, 0, 1
33.834451999999999, 0, 0
34.030881999999998, 1, 0
34.030893999999996, 0, 0
34.136275999999995, 0, 1
34.136682000000000, 0, 0
34.251075999999998, 1, 0
34.251087999999996, 0, 0
34.438521999999999, 0, 1
34.438989999999997, 0, 0
34.471302000000001, 1, 0
34.471314000000000, 0, 0
34.740735999999998, 0, 1
34.741143999999998, 0, 0
34.801639999999999, 1, 0
34.801651999999997, 0, 0
35.042966000000000, 0, 1
35.043374000000000, 0, 0
35.131977999999997, 1, 0
35.131990000000002, 0, 0
35.345196000000001, 0, 1
35.345604000000002, 0, 0
35.352204000000000, 1, 0
35.352215999999999, 0, 0
35.647441999999998, 0, 1
35.647929999999995, 0, 0
35.682541999999998, 1, 0
35.682553999999996, 0, 0
35.949657999999999, 0, 1
35.950063999999998, 0, 0
36.012879999999996, 1, 0
36.012892000000001, 0, 0
36.251888000000001, 0, 1
36.252293999999999, 0, 0
36.343219999999995, 1, 0
36.343229999999998, 0, 0
36.554117999999995, 0, 1
36.554524000000001, 0, 0
36.563443999999997, 1, 0
36.563455999999995, 0, 0
36.856347999999997, 0, 1
36.856753999999995, 0, 0
37.003895999999997, 1, 0
37.003906000000001, 0, 0
37.158594000000001, 0, 1
37.159030000000001, 0, 0
37.224122000000001, 1, 0
37.224131999999997, 0, 0
37.460808000000000, 0, 1
37.461216000000000, 0, 0
37.554459999999999, 1, 0
37.554469999999995, 0, 0
37.763052000000002, 0, 1
37.763458000000000, 0, 0
37.774684000000001, 1, 0
37.774695999999999, 0, 0
38.065267999999996, 0, 1
38.065675999999996, 0, 0
38.105024000000000, 1, 0
38.105033999999996, 0, 0
38.367497999999998, 0, 1
38.367905999999998, 0, 0
38.545473999999999, 1, 0
38.545485999999997, 0, 0
38.669727999999999, 0, 1
38.670135999999999, 0, 0
38.765699999999995, 1, 0
38.765709999999999, 0, 0
38.971981999999997, 0, 1
38.972467999999999, 0, 0
39.274189999999997, 0, 1
39.274597999999997, 0, 0
39.576419999999999, 0, 1
39.576830000000001, 0, 0
39.878650000000000, 0, 1
39.879059999999996, 0, 0
39.976911999999999, 1, 0
39.976923999999997, 0, 0
40.087026000000002, 1, 0
40.087035999999998, 0, 0
40.181081999999996, 0, 1
40.181567999999999, 0, 0
40.197151999999996, 1, 0
40.197161999999999, 0, 0
40.307277999999997, 1, 0
40.307289999999995, 0, 0
40.417389999999997, 1, 0
40.417401999999996, 0, 0
40.483308000000001, 0, 1
40.483744000000002, 0, 0
40.527505999999995, 1, 0
40.527518000000001, 0, 0
40.785523999999995, 0, 1
40.785931999999995, 0, 0
40.967953999999999, 1, 0
40.967965999999997, 0, 0
41.087753999999997, 0, 1
41.088159999999995, 0, 0
41.389983999999998, 0, 1
41.390391999999999, 0, 0
41.518518000000000, 1, 0
41.518529999999998, 0, 0
41.628630000000001, 1, 0
41.628641999999999, 0, 0
41.692529999999998, 0, 1
41.693017999999995, 0, 0
41.738743999999997, 1, 0
41.738754000000000, 0, 0
41.994734000000001, 0, 1
41.995221999999998, 0, 0
42.179178000000000, 1, 0
42.179189999999998, 0, 0
42.296948000000000, 0, 1
42.297356000000001, 0, 0
42.399419999999999, 1, 0
42.399431999999997, 0, 0
42.599179999999997, 0, 1
42.599585999999995, 0, 0
42.619645999999996, 1, 0
42.619655999999999, 0, 0
42.901409999999998, 0, 1
42.901815999999997, 0, 0
42.949984000000001, 1, 0
42.949993999999997, 0, 0
43.204105999999996, 0, 1
43.204591999999998, 0, 0
43.280321999999998, 1, 0
43.280333999999996, 0, 0
43.506298000000001, 0, 1
43.506703999999999, 0, 0
43.610630000000000, 1, 0
43.610641999999999, 0, 0
43.808527999999995, 0, 1
43.808934000000001, 0, 0
43.830855999999997, 1, 0
43.830866000000000, 0, 0
44.110757999999997, 0, 1
44.111163999999995, 0, 0
44.161193999999995, 1, 0
44.161203999999998, 0, 0
44.412987999999999, 0, 1
44.413393999999997, 0, 0
44.711757999999996, 1, 0
44.711767999999999, 0, 0
44.715567999999998, 0, 1
44.716017999999998, 0, 0
44.821869999999997, 1, 0
44.821881999999995, 0, 0
45.017800000000001, 0, 1
45.018285999999996, 0, 0
45.042096000000001, 1, 0
45.042107999999999, 0, 0
45.320014000000000, 0, 1
45.320422000000001, 0, 0
45.372433999999998, 1, 0
45.372443999999994, 0, 0
45.622243999999995, 0, 1
45.622650000000000, 0, 0
45.702771999999996, 1, 0
45.702784000000001, 0, 0
45.924473999999996, 0, 1
45.924881999999997, 0, 0
46.033110000000001, 1, 0
46.033121999999999, 0, 0
46.227179999999997, 0, 1
46.227665999999999, 0, 0
46.253335999999997, 1, 0
46.253346000000001, 0, 0
46.529392000000001, 0, 1
46.529799999999994, 0, 0
46.583673999999995, 1, 0
46.583686000000000, 0, 0
46.831621999999996, 0, 1
46.832029999999996, 0, 0
47.133851999999997, 0, 1
47.134222000000001, 1, 1
47.134231999999997, 0, 1
47.134671999999995, 0, 0
47.244333999999995, 1, 0
47.244346000000000, 0, 0
47.436081999999999, 0, 1
47.436489999999999, 0, 0
47.464576000000001, 1, 0
47.464585999999997, 0, 0
47.738647999999998, 0, 1
47.739135999999995, 0, 0
47.794913999999999, 1, 0
47.794925999999997, 0, 0
48.040847999999997, 0, 1
48.041255999999997, 0, 0
48.125251999999996, 1, 0
48.125264000000001, 0, 0
48.343077999999998, 0, 1
48.343793999999995, 0, 0
48.455590000000001, 1, 0
48.455601999999999, 0, 0
48.645308000000000, 0, 1
48.645716000000000, 0, 0
48.675815999999998, 1, 0
48.675827999999996, 0, 0
48.947539999999996, 0, 1
48.947945999999995, 0, 0
49.006153999999995, 1, 0
49.006166000000000, 0, 0
49.249769999999998, 0, 1
49.250175999999996, 0, 0
49.336492000000000, 1, 0
49.336503999999998, 0, 0
49.552000000000000, 0, 1
49.552506000000001, 0, 0
49.666829999999997, 1, 0
49.666841999999995, 0, 0
49.854230000000001, 0, 1
49.854635999999999, 0, 0
49.887056000000001, 1, 0
49.887067999999999, 0, 0
50.156459999999996, 0, 1
50.156866000000001, 0, 0
50.217393999999999, 1, 0
50.217405999999997, 0, 0
50.458689999999997, 0, 1
50.459095999999995, 0, 0
50.547731999999996, 1, 0
50.547743999999994, 0, 0
50.760919999999999, 0, 1
50.761327999999999, 0, 0
50.767958000000000, 1, 0
50.767969999999998, 0, 0
50.878747999999995, 1, 0
50.878760000000000, 0, 0
51.063150000000000, 0, 1
51.063558000000000, 0, 0
51.098265999999995, 1, 0
51.098275999999998, 0, 0
51.365379999999995, 0, 1
51.365787999999995, 0, 0
51.428633999999995, 1, 0
51.428646000000001, 0, 0
51.667609999999996, 0, 1
51.668017999999996, 0, 0
51.758972000000000, 1, 0
51.758983999999998, 0, 0
51.969839999999998, 0, 1
51.970247999999998, 0, 0
51.979197999999997, 1, 0
51.979209999999995, 0, 0
52.272071999999994, 0, 1
52.272478000000000, 0, 0
52.309535999999994, 1, 0
52.309547999999999, 0, 0
52.574315999999996, 0, 1
52.574784000000001, 0, 0
52.639873999999999, 1, 0
52.639885999999997, 0, 0
52.876531999999997, 0, 1
52.876937999999996, 0, 0
52.970213999999999, 1, 0
52.970223999999995, 0, 0
53.178761999999999, 0, 1
53.179167999999997, 0, 0
53.190407999999998, 1, 0
53.190419999999996, 0, 0
53.480992000000001, 0, 1
53.481400000000001, 0, 0
53.520745999999995, 1, 0
53.520758000000001, 0, 0
53.783221999999995, 0, 1
53.783628000000000, 0, 0
54.085451999999997, 0, 1
54.085859999999997, 0, 0
54.181421999999998, 1, 0
54.181433999999996, 0, 0
54.387681999999998, 0, 1
54.388089999999998, 0, 0
54.401647999999994, 1, 0
54.401660000000000, 0, 0
54.511761999999997, 1, 0
54.511772000000001, 0, 0
54.689912000000000, 0, 1
54.690320000000000, 0, 0
54.731985999999999, 1, 0
54.731997999999997, 0, 0
54.992141999999994, 0, 1
54.992549999999994, 0, 0
55.062323999999997, 1, 0
55.062335999999995, 0, 0
55.294371999999996, 0, 1
55.294779999999996, 0, 0
55.392645999999999, 1, 0
55.392657999999997, 0, 0
55.596646000000000, 0, 1
55.597133999999997, 0, 0
55.612887999999998, 1, 0
55.612899999999996, 0, 0
55.898879999999998, 0, 1
55.899366000000001, 0, 0
56.163451999999999, 1, 0
56.163463999999998, 0, 0
56.201093999999998, 0, 1
56.201499999999996, 0, 0
56.273564000000000, 1, 0
56.273575999999998, 0, 0
56.503323999999999, 0, 1
56.503731999999999, 0, 0
56.603904000000000, 1, 0
56.603913999999996, 0, 0
56.805554000000001, 0, 1
56.805962000000001, 0, 0
56.824127999999995, 1, 0
56.824140000000000, 0, 0
57.108328000000000, 0, 1
57.108815999999997, 0, 0
57.154465999999999, 1, 0
57.154477999999997, 0, 0
57.410533999999998, 0, 1
57.410939999999997, 0, 0
57.484803999999997, 1, 0
57.484815999999995, 0, 0
57.712764000000000, 0, 1
57.713169999999998, 0, 0
57.815143999999997, 1, 0
57.815154000000000, 0, 0
58.014993999999994, 0, 1
58.015400000000000, 0, 0
58.035367999999998, 1, 0
58.035379999999996, 0, 0
58.317223999999996, 0, 1
58.317629999999994, 0, 0
58.365705999999996, 1, 0
58.365717999999994, 0, 0
58.619747999999994, 0, 1
58.620233999999996, 0, 0
58.696045999999996, 1, 0
58.696055999999999, 0, 0
58.921957999999997, 0, 1
58.922365999999997, 0, 0
59.224204000000000, 0, 1
59.224691999999997, 0, 0
59.246592000000000, 1, 0
59.246603999999998, 0, 0
59.356705999999996, 1, 0
59.356715999999999, 0, 0
59.526419999999995, 0, 1
59.526827999999995, 0, 0
59.576947999999994, 1, 0
59.576957999999998, 0, 0
59.828649999999996, 0, 1
59.829055999999994, 0, 0
59.907285999999999, 1, 0
59.907295999999995, 0, 0
